time,V_C,I_L,V_IN
0,0,0,-2.132698392
5.00E-07,-0.01975647,-0.021549618,-10.60696679
1.00E-06,-0.156453999,-0.133756465,-20.21491834
1.50E-06,-0.599356633,-0.36477313,-29.92346562
2.00E-06,-1.54230515,-0.66249652,-37.30265198
2.50E-06,-3.092780393,-1.016005896,-41.19511482
3.00E-06,-5.299647244,-1.368533449,-45.9499823
3.50E-06,-8.169717479,-1.729960223,-48.11479299
4.00E-06,-11.68669926,-2.061180455,-49.6536624
4.50E-06,-15.77767154,-2.351241447,-52.48705263
5.00E-06,-20.3840645,-2.616931968,-54.08073293
5.50E-06,-25.45291227,-2.854576602,-54.85199533
6.00E-06,-30.91889278,-3.041491838,-56.32880461
6.50E-06,-36.68334634,-3.177316906,-57.66536328
7.00E-06,-42.65348522,-3.261423358,-59.21245691
7.50E-06,-48.73304894,-3.293228,-59.83856239
8.00E-06,-54.82070306,-3.269114948,-57.79900392
8.50E-06,-60.77847363,-3.148549122,-52.81069371
9.00E-06,-66.42696377,-2.933482571,-48.86384735
9.50E-06,-71.59974441,-2.636524697,-42.47770819
1.00E-05,-76.14785912,-2.265280367,-39.80096313
1.05E-05,-79.93982413,-1.82234991,-38.25469973
1.10E-05,-82.84787417,-1.315866903,-35.43843742
1.15E-05,-84.78440602,-0.77357504,-32.2922063
1.20E-05,-85.71381478,-0.219781886,-30.66909376
1.25E-05,-85.62774174,0.325784486,-30.11213256
1.30E-05,-84.54506793,0.847973862,-30.90806107
1.35E-05,-82.51191408,1.336213888,-32.43520837
1.40E-05,-79.60164063,1.784510069,-31.93312058
1.45E-05,-75.90921858,2.189271105,-30.54858963
1.50E-05,-71.50845044,2.546190952,-29.96608345
1.55E-05,-66.47992889,2.872000369,-27.63605374
1.60E-05,-60.88474188,3.175706928,-23.9739477
1.65E-05,-54.75772694,3.454294822,-18.53531246
1.70E-05,-48.12587814,3.701925496,-12.50164159
1.75E-05,-41.060862,3.919050814,-8.936461921
1.80E-05,-33.63771189,4.093067949,-6.985750685
1.85E-05,-25.94091334,4.214921423,-3.683893067
1.90E-05,-18.07111436,4.273017409,0.792573312
1.95E-05,-10.14026763,4.275218484,4.963455481
2.00E-05,-2.214691359,4.265660488,9.44095985
2.05E-05,5.669131881,4.256462622,15.61717012
2.10E-05,13.50275968,4.224261695,20.55935679
2.15E-05,21.23622649,4.116204229,25.43063186
2.20E-05,28.74170545,3.985059902,29.22930801
2.25E-05,35.98410064,3.831335853,32.38492055
2.30E-05,42.8909208,3.626518579,37.52622847
2.35E-05,49.44126854,3.445274674,44.43316123
2.40E-05,55.65149278,3.262642735,52.92652363
2.45E-05,61.53210032,3.102916885,63.06155671
2.50E-05,67.17688335,2.991729726,72.50994507
2.55E-05,72.61244336,2.890236313,81.51186174
2.60E-05,77.93761885,2.864475747,88.70681325
2.65E-05,83.24062749,2.864395164,94.88032927
2.70E-05,88.5362259,2.853959436,99.64314396
2.75E-05,93.83322001,2.864536009,103.6753074
2.80E-05,99.14037149,2.871011437,107.4404486
2.85E-05,104.4385417,2.853250907,109.848693
2.90E-05,109.6833616,2.809752861,114.7114608
2.95E-05,114.8301763,2.748293947,116.6158352
3.00E-05,119.8253648,2.643458444,115.2672897
3.05E-05,124.5920163,2.489566189,115.709413
3.10E-05,129.0320066,2.298680821,118.0223063
3.15E-05,133.0874515,2.082686839,121.4091786
3.20E-05,136.7621731,1.876206844,125.2862896
3.25E-05,140.0673028,1.690481597,127.7761525
3.30E-05,143.0181991,1.506303442,127.4399017
3.35E-05,145.6125846,1.290728531,125.8348677
3.40E-05,147.7722357,1.038053687,122.9611562
3.45E-05,149.4281784,0.745710809,121.4385138
3.50E-05,150.5258329,0.43547135,119.2335621
3.55E-05,151.0287389,0.098861824,114.7697897
3.60E-05,150.8701829,-0.275176015,109.4786506
3.65E-05,149.9760261,-0.696485192,104.7424374
3.70E-05,148.2885487,-1.126697862,98.72437064
3.75E-05,145.7770697,-1.59175584,91.18778535
3.80E-05,142.380987,-2.073174765,84.44983609
3.85E-05,138.1139558,-2.541732276,78.56366114
3.90E-05,132.9321155,-3.056079795,71.9136895
3.95E-05,126.8002864,-3.561952305,64.71786779
4.00E-05,119.7328788,-4.075071072,57.65722363
4.05E-05,111.721528,-4.566253615,47.66207056
4.10E-05,102.7380089,-5.28053046,34.81243361
4.15E-05,90.32615622,-8.347479167,21.28089012
4.20E-05,71.94249716,-11.18900657,8.893851876
4.25E-05,49.50405191,-12.66038432,-0.492121736
4.30E-05,25.94860898,-12.61683409,-4.919646718
4.35E-05,3.727371023,-11.13574751,-6.29403581
4.40E-05,-14.6119311,-8.548347357,-7.358464892
4.45E-05,-27.80397199,-5.806455017,-8.890044642
4.50E-05,-37.42165093,-4.805737492,-12.24443884
4.55E-05,-45.86677086,-4.319172606,-15.75669663
4.60E-05,-53.41426591,-3.823648797,-19.12834316
4.65E-05,-60.02316068,-3.317416469,-21.85116052
4.70E-05,-65.68773612,-2.794888263,-25.34581808
4.75E-05,-70.37535818,-2.267412802,-26.74379097
4.80E-05,-74.08993482,-1.743465409,-24.4537036
4.85E-05,-76.80814887,-1.184438284,-21.60473345
4.90E-05,-78.43881361,-0.571521752,-17.89834761
4.95E-05,-78.91595876,0.05702285,-13.20967393
5.00E-05,-78.21917241,0.695292226,-9.469201424
5.05E-05,-76.32170998,1.355713545,-5.931196137
5.10E-05,-73.20077466,2.020211633,-2.665916414
5.15E-05,-68.8575436,2.662259916,-0.047146399
5.20E-05,-63.37358777,3.251597322,0.677692963
5.25E-05,-56.86922856,3.762738048,1.231421868
5.30E-05,-49.47362612,4.215345635,3.513694809
5.35E-05,-41.30506882,4.596869637,9.205352461
5.40E-05,-32.41598142,5.049689916,17.89943464
5.45E-05,-21.97899606,6.386111867,29.78589072
5.50E-05,-8.325276601,8.337248869,39.8147256
5.55E-05,8.48097206,9.532658684,49.75172794
5.60E-05,26.61118367,9.829696427,60.02396761
5.65E-05,44.6069864,9.486651534,72.71784182
5.70E-05,61.70248719,8.767190154,82.23694862
5.75E-05,77.0514324,7.82454981,87.55191963
5.80E-05,90.33546384,6.445253814,88.88541291
5.85E-05,100.9571587,5.151357521,84.62019878
5.90E-05,109.9268925,4.587524239,77.96740818
5.95E-05,117.9268963,4.026372632,70.09170727
6.00E-05,124.757906,3.334361348,63.06297401
6.05E-05,130.2361291,2.573414049,58.46396625
6.10E-05,134.2519275,1.756431321,58.73853838
6.15E-05,136.7522122,0.943900519,61.24574135
6.20E-05,137.7636786,0.158670152,61.88774919
6.25E-05,137.3465831,-0.607579653,60.24510563
6.30E-05,135.5170524,-1.360741313,58.37881995
6.35E-05,132.308094,-2.098691203,54.97251802
6.40E-05,127.7748649,-2.793312244,55.49866237
6.45E-05,122.0313296,-3.39993658,58.74602019
6.50E-05,115.2542095,-3.910139388,59.93818459
6.55E-05,107.6002562,-4.335455603,57.61625683
6.60E-05,99.22283887,-4.692803681,57.19323389
6.65E-05,90.24092582,-5.014525472,57.62676683
6.70E-05,80.6579745,-5.305674095,59.33819486
6.75E-05,70.75775759,-5.325537407,57.51323783
6.80E-05,61.09118166,-5.095180621,53.62141432
6.85E-05,51.83533106,-4.901813451,49.73062333
6.90E-05,42.94567333,-4.701792421,45.98105236
6.95E-05,34.47090162,-4.457892307,41.94338419
7.00E-05,26.4935709,-4.160113844,38.73777682
7.05E-05,19.08013654,-3.821365866,33.8117997
7.10E-05,12.29463073,-3.501100365,28.63765363
7.15E-05,6.105248323,-3.185049665,24.48649286
7.20E-05,0.507191951,-2.858271013,22.28413184
7.25E-05,-4.476212833,-2.517170201,21.39097416
7.30E-05,-8.806758279,-2.156202528,17.72921606
7.35E-05,-12.45738464,-1.785673485,11.45280116
7.40E-05,-15.45697931,-1.446611198,8.037694301
7.45E-05,-17.85795684,-1.153902384,5.973569967
7.50E-05,-19.73231394,-0.890840732,3.618481501
7.55E-05,-21.13437504,-0.621666298,4.455796691
7.60E-05,-22.02041171,-0.333291249,6.789746294
7.65E-05,-22.36113943,-0.033448003,11.28357782
7.70E-05,-22.11884916,0.309569215,16.91648936
7.75E-05,-21.19547746,0.686204199,26.88856273
7.80E-05,-19.51830118,1.125623743,39.8319417
7.85E-05,-16.97261955,1.643649367,51.64076368
7.90E-05,-13.34370435,2.301201264,63.75596692
7.95E-05,-8.431925891,3.01246911,76.39136749
8.00E-05,-2.147958831,3.781387649,89.48905433
8.05E-05,5.618210854,4.610849275,99.353838
8.10E-05,15.84585883,7.376741297,108.8249147
8.15E-05,34.32327303,12.17804332,117.9874647
8.20E-05,59.73188149,14.88724611,121.5306371
8.25E-05,87.94703203,15.1672283,119.5499407
8.30E-05,114.2472882,12.89005078,112.2939255
8.35E-05,134.4786081,8.783245142,104.2806617
8.40E-05,146.5717183,5.020142581,98.98478305
8.45E-05,155.0867712,4.215984443,97.39682473
8.50E-05,162.1870748,3.448504986,97.28830506
8.55E-05,167.8452552,2.668474737,99.33833626
8.60E-05,172.0561229,1.874268103,97.64106607
8.65E-05,174.7636848,1.03099881,91.45126473
8.70E-05,175.8780937,0.17237243,84.89295848
8.75E-05,175.3624612,-0.731621466,79.55038508
8.80E-05,173.1473427,-1.663312146,73.55545929
8.85E-05,169.2302434,-2.56944299,63.69284657
8.90E-05,163.6069177,-3.518757214,52.96691867
8.95E-05,156.1226617,-4.590577075,41.08733401
9.00E-05,144.877766,-8.867521617,31.57561035
9.05E-05,122.4030431,-14.92726881,23.80825396
9.10E-05,91.32826169,-18.21821779,14.97140189
9.15E-05,56.79442438,-18.50384771,5.198283348
9.20E-05,24.01354869,-16.65297201,-5.708673498
9.25E-05,-4.342816896,-13.7754634,-15.21027697
9.30E-05,-26.77153997,-10.38485539,-21.90077126
9.35E-05,-42.83628138,-6.980519768,-28.83117383
9.40E-05,-53.61935853,-5.068317519,-34.37998853
9.45E-05,-62.47694191,-4.555019427,-40.24141011
9.50E-05,-70.53482073,-4.138481025,-47.02796446
9.55E-05,-77.82288576,-3.732164589,-53.78974064
9.60E-05,-84.36835446,-3.352858458,-61.80813673
9.65E-05,-90.2310732,-2.973419074,-70.67912465
9.70E-05,-95.42708531,-2.64566016,-79.63571236
9.75E-05,-100.0815862,-2.389273924,-83.46015892
9.80E-05,-104.252246,-2.116880043,-85.64375964
9.85E-05,-107.9307864,-1.855484584,-88.3843665
9.90E-05,-111.121777,-1.588884006,-90.24810449
9.95E-05,-113.8126606,-1.315951113,-91.62422083
1.00E-04,-116.0072983,-1.051991832,-92.51268528
0.0001005,-117.7071649,-0.786899754,-91.23530714
0.000101,-118.8990032,-0.497510395,-88.07954515
0.0001015,-119.5266764,-0.175709881,-85.92748379
0.000102,-119.5389741,0.163061078,-85.22139358
0.0001025,-118.9239553,0.498614952,-86.24955792
0.000103,-117.6942616,0.819196999,-92.36721749
0.0001035,-115.9741453,1.025293311,-100.6793964
0.000104,-113.9627075,1.130558022,-104.3672239
0.0001045,-111.8089151,1.187359361,-103.0667539
0.000105,-109.5661361,1.232093431,-100.7988166
0.0001055,-107.2467215,1.274644801,-97.09109152
0.000106,-104.8322695,1.342781375,-90.82223007
0.0001065,-102.2529316,1.454319231,-77.8637075
0.000107,-99.3615006,1.686192977,-62.54225249
0.0001075,-95.96659736,1.983151813,-49.24727766
0.000108,-91.98016305,2.340809882,-40.43500044
0.0001085,-87.24828298,2.773316474,-36.31004548
0.000109,-81.72481756,3.185517756,-33.35131969
0.0001095,-75.48604871,3.550923008,-32.84600665
0.00011,-68.63501838,3.830216982,-35.88676968
0.0001105,-61.36053634,3.991581483,-40.92968094
0.000111,-53.92597528,4.015641263,-46.70162272
0.0001115,-46.55682621,3.924866535,-48.01855892
0.000112,-39.4230545,3.766601348,-46.25516192
0.0001125,-32.64347915,3.547137079,-43.28500886
0.000113,-26.31637046,3.278326189,-37.41941212
0.0001135,-20.4757653,3.02799033,-31.74294053
0.000114,-15.08763069,2.808685461,-27.6121583
0.0001145,-10.09621151,2.584719287,-20.91687274
0.000115,-5.487611187,2.3913573,-13.73515012
0.0001155,-1.205558094,2.240212956,-9.451403957
0.000116,2.791514339,2.078530942,-7.088357781
0.0001165,6.475407602,1.897023723,-7.652387583
0.000117,9.782813305,1.671281521,-10.88297514
0.0001175,12.63468943,1.3961449,-11.36599754
0.000118,14.95649452,1.112051972,-8.080767203
0.0001185,16.76552004,0.842117092,-6.842467808
0.000119,18.08143321,0.581492763,-5.622815554
0.0001195,18.91686977,0.322878279,-5.86396756
0.00012,19.27438323,0.061674377,-7.682235377
0.0001205,19.13691252,-0.21243687,-11.12912971
0.000121,18.46221672,-0.522691504,-16.08354971
0.0001215,17.1904892,-0.852083819,-21.03594764
0.000122,15.28191243,-1.215001267,-26.73033115
0.0001225,12.68336833,-1.587307793,-31.37393235
0.000123,9.404978344,-1.946542243,-35.30391479
0.0001235,5.458123131,-2.317831018,-39.50354844
0.000124,0.823739352,-2.699597535,-45.20622262
0.0001245,-4.51312262,-3.058972513,-51.11181251
0.000125,-10.50828213,-3.410593831,-54.39156755
0.0001255,-17.12262496,-3.725431358,-56.04739703
0.000126,-24.26583345,-3.975999607,-58.89055616
0.0001265,-31.82168595,-4.168977887,-60.90885728
0.000127,-39.68340145,-4.308170061,-61.62403361
0.0001275,-47.73668844,-4.383820642,-64.6910478
0.000128,-55.8642165,-4.390130631,-67.05594286
0.0001285,-63.94317642,-4.325885732,-69.53104673
0.000129,-71.85153008,-4.205894722,-70.86003499
0.0001295,-79.49716202,-4.042636616,-73.88601983
0.00013,-86.78687848,-3.822279063,-81.06675451
0.0001305,-93.64720702,-3.595836334,-91.04223208
0.000131,-100.1746266,-3.462451959,-99.72165178
0.0001315,-106.4684757,-3.330265834,-106.5960958
0.000132,-112.5058943,-3.182218557,-113.34781
0.0001325,-118.284518,-3.06435571,-118.5885284
0.000133,-123.8590334,-2.976437178,-125.6184638
0.0001335,-129.2870082,-2.887537624,-132.6194207
0.000134,-134.5887425,-2.834180007,-140.8260131
0.0001345,-139.8358169,-2.841052788,-149.0705011
0.000135,-145.0862301,-2.833250288,-156.0732849
0.0001355,-150.3042271,-2.803231469,-163.2384555
0.000136,-155.5023793,-2.809693304,-169.233622
0.0001365,-160.7261376,-2.842196973,-171.9378055
0.000137,-165.9968672,-2.847588551,-173.6099367
0.0001375,-171.2420178,-2.812474973,-173.3120664
0.000138,-176.381199,-2.727153949,-173.7787598
0.0001385,-181.3119266,-2.583895178,-171.972621
0.000139,-185.9032772,-2.365528707,-167.6109518
0.0001395,-190.0368259,-2.089394847,-167.7798137
0.00014,-193.6391276,-1.792410686,-169.6057274
0.0001405,-196.6719711,-1.484157092,-169.6074628
0.000141,-199.1237919,-1.158325242,-168.657142
0.0001415,-200.9520448,-0.812266946,-166.6179943
0.000142,-202.104829,-0.436243898,-165.0058498
0.0001425,-202.5442328,-0.036929958,-162.9609871
0.000143,-202.2464439,0.361860723,-160.0039133
0.0001435,-201.204829,0.772522993,-154.1612544
0.000144,-199.3341235,1.248089256,-147.0449881
0.0001445,-196.5422477,1.774322255,-139.5513509
0.000145,-192.7858673,2.283094001,-133.3137284
0.0001455,-188.1017296,2.77159793,-128.6875594
0.000146,-182.5152461,3.261208783,-124.9550628
0.0001465,-176.0382722,3.7366049,-120.7174622
0.000147,-168.7163959,4.155696712,-116.9560448
0.0001475,-160.6643057,4.546753178,-111.6116967
0.000148,-151.8833209,4.958007856,-101.5489183
0.0001485,-141.8299513,6.082552531,-89.71055414
0.000149,-128.833542,7.919649537,-78.65055994
0.0001495,-112.5800412,9.409865986,-66.62784011
0.00015,-94.40568302,10.02165833,-57.26511425
0.0001505,-75.8501769,9.900888788,-53.84274332
0.000151,-58.5384934,8.600688507,-54.69974945
0.0001515,-44.51809845,6.492784688,-59.68923297
0.000152,-34.27047046,4.912311034,-65.31266721
0.0001525,-25.70344951,4.332981819,-69.05269349
0.000153,-18.25784055,3.701228747,-68.27730974
0.0001535,-12.01072718,3.045770101,-65.86695823
0.000154,-6.985902348,2.377576148,-63.2943994
0.0001545,-3.19341432,1.720817965,-60.33228741
0.000155,-0.597622522,1.084973498,-61.48158974
0.0001555,0.812609998,0.439213802,-62.34881433
0.000156,1.033571962,-0.199972488,-61.85620031
0.0001565,0.083914558,-0.823574024,-63.15941177
0.000157,-1.996968395,-1.418506764,-62.14929549
0.0001575,-5.130984324,-1.956613517,-59.91382357
0.000158,-9.202851126,-2.42399819,-58.02591363
0.0001585,-14.07687539,-2.821945876,-53.78872925
0.000159,-19.57030211,-3.093403323,-44.77703821
0.0001595,-25.39505097,-3.174969784,-35.15481698
0.00016,-31.26089134,-3.13561461,-26.33372848
0.0001605,-36.95401909,-2.986389916,-19.88015195
0.000161,-42.23227547,-2.697728894,-15.75487055
0.0001615,-46.89001415,-2.323212484,-11.29141447
0.000162,-50.79725675,-1.882629758,-8.702933506
0.0001625,-53.83953403,-1.385328127,-6.961592831
0.000163,-55.93789911,-0.8708861,-6.118219871
0.0001635,-57.06069837,-0.354564796,-4.433088095
0.000164,-57.22113844,0.172733331,-1.48135785
0.0001645,-56.38382645,0.729357765,3.095196212
0.000165,-54.49540116,1.303294044,6.338440946
0.0001655,-51.55587092,1.870228724,7.765946478
0.000166,-47.60698454,2.398626884,6.568700197
0.0001665,-42.73590442,2.850752366,4.306079934
0.000167,-37.10674505,3.210526219,3.29680208
0.0001675,-30.8888941,3.488432709,3.663244533
0.000168,-24.23038757,3.692866116,2.901203246
0.0001685,-17.26138294,3.828583567,4.286958758
0.000169,-10.09448239,3.90921603,8.898987781
0.0001695,-2.783869494,3.983370932,15.34712557
0.00017,4.633012653,4.023806875,24.47108201
0.0001705,12.12259732,4.064965074,30.86907933
0.000171,19.67924505,4.089092619,32.31972916
0.0001715,27.2325171,4.055278241,29.92117849
0.000172,34.63367952,3.923652216,30.24757147
0.0001725,41.7298035,3.718319339,32.42890638
0.000173,48.40551256,3.469372129,34.496464
0.0001735,54.57541235,3.191254033,36.04344668
0.000174,60.18409063,2.882759426,36.3154484
0.0001745,65.1957273,2.532942807,40.90477002
0.000175,69.56486251,2.188778923,46.17752762
0.0001755,73.33759679,1.887987803,51.15153944
0.000176,76.5626831,1.597198994,56.97042469
0.0001765,79.25165245,1.311467685,63.15048168
0.000177,81.46758459,1.086585245,68.41691378
0.0001775,83.31109997,0.920643044,71.32847898
0.000178,84.86389149,0.762059906,75.04588639
0.0001785,86.1685006,0.65169762,82.67917618
0.000179,87.36751485,0.653920332,93.36995539
0.0001795,88.61066289,0.700510616,105.7565919
0.00018,89.98888217,0.802898229,115.0744931
0.0001805,91.64929805,0.999999634,120.1365312
0.000181,93.72554633,1.253228791,123.1467663
0.0001815,96.28022971,1.504345011,125.7315119
0.000182,99.29113671,1.743475378,128.6753495
0.0001825,102.7251361,1.961678085,128.4132504
0.000183,106.5325013,2.14467822,129.742087
0.0001835,110.6592346,2.30225863,130.4131601
0.000184,115.0100643,2.395106036,128.812471
0.0001845,119.46157,2.401413674,123.5838754
0.000185,123.8712264,2.342263425,114.9707215
0.0001855,128.1017677,2.201529159,107.8703427
0.000186,131.9266419,1.912534719,101.065611
0.0001865,135.1215032,1.52608507,91.37088649
0.000187,137.5586736,1.080620644,79.06564963
0.0001875,138.9952002,0.452000018,67.62027212
0.000188,139.1615805,-0.283059382,60.54599829
0.0001885,137.9619418,-1.024369783,53.63093589
0.000189,135.3071294,-1.845995488,44.04565559
0.0001895,131.1048726,-2.693657421,34.16933693
0.00019,125.3240757,-3.567095638,23.36686475
0.0001905,117.8671383,-4.483222994,8.232629236
0.000191,107.7545156,-7.681189713,-6.40791714
0.0001915,86.95865908,-14.32728795,-19.10603229
0.000192,56.14286154,-18.32974503,-27.62972666
0.0001925,20.87528838,-19.25171228,-30.06996849
0.000193,-13.26130585,-17.16987776,-28.92222547
0.0001935,-41.40078337,-12.9669117,-28.36951089
0.000194,-60.77612211,-7.97183836,-28.78176324
0.0001945,-72.01559561,-4.991001352,-24.20688045
0.000195,-80.55919413,-4.235148744,-18.73842895
0.0001955,-87.6540323,-3.426433215,-13.88873062
0.000196,-93.20794008,-2.552136033,-9.578995385
0.0001965,-97.06875053,-1.611963247,-5.500948268
0.000197,-99.1794037,-0.666958565,-2.467560642
0.0001975,-99.50470713,0.313336511,-1.388049492
0.000198,-98.02857054,1.276229912,-1.878868168
0.0001985,-94.81268017,2.188671787,-2.920131943
0.000199,-89.97518022,3.022948545,-5.316464367
0.0001995,-83.67755626,3.75295215,-9.03074796
0.0002,-76.13227751,4.381569784,-12.45087529
0.0002005,-67.50949076,4.935670269,-14.99833957
0.000201,-57.4129845,6.142994315,-15.55958329
0.0002015,-44.71275148,7.377358731,-20.0890335
0.000202,-31.12029144,7.056191562,-22.28434627
0.0002025,-19.06593941,5.94033971,-22.05956237
0.000203,-9.084755961,4.978592998,-25.58364338
0.0002035,-0.283990263,4.532879119,-30.41430697
0.000204,7.652523305,4.023493524,-36.0993013
0.0002045,14.5397892,3.391467131,-44.30015791
0.000205,20.15090821,2.657025055,-54.01878183
0.0002055,24.32269302,1.827752709,-63.83679622
0.000206,26.84439008,0.887517118,-68.39823977
0.0002065,27.57805077,-0.098778837,-68.49413461
0.000207,26.5147599,-1.042505538,-64.7530619
0.0002075,23.77997156,-1.906608711,-59.68273864
0.000208,19.52919329,-2.667829392,-57.25326483
0.0002085,13.94626512,-3.329211704,-56.24084477
0.000209,7.228961542,-3.91080214,-54.98129457
0.0002095,-0.477980569,-4.400637404,-55.50203349
0.00021,-9.032438818,-4.827111214,-54.92700363
